#!/bin/bash
### BEGIN INIT INFO
# Provides:          claw
# Required-Start:    $all
# Required-Stop:     $all
# Default-Start:     2 3 4 5
# Default-Stop:      0 1 6
# Short-Description: Start clawinit in  boot time/ clawcompact in shutdown
# Description:       claw control on boot or shutdown
### END INIT INFO

start(){
i2cset -y 0 0x40 0x00 16  #sleep
i2cset -y 0 0x40 0xFE 121 #50 Hz
i2cset -y 0 0x40 0x00 32  #auto-increment
sleep 1s
i2cset -y 0 0x40 0x00 `expr 32 + 128` #auto-increment and restart
i2cset -y 0 0x40 0x0E 0 0 100 1 i
i2cset -y 0 0x40 0x06 0 0 1 1 i
i2cset -y 0 0x40 0x0A 0 0 0 2 i
sleep 0.5
i2cset -y 0 0x40 0x06 0 0 0 0 i
i2cset -y 0 0x40 0x0A 0 0 0 0 i
exit 0
}

stop() {
i2cset -y 0 0x40 0x0A 0 0 0 2 i
i2cset -y 0 0x40 0x06 0 0 1 1 i
i2cset -y 0 0x40 0x0E 0 0 250 1 i
sleep 0.8
i2cset -y 0 0x40 0x06 0 0 0 0 i
i2cset -y 0 0x40 0x0A 0 0 0 0 i
i2cset -y 0 0x40 0x0E 0 0 0 0 i
exit 0
}
case "$1" in
    start)
        start
        ;;
    stop)
        stop
        ;;
    *)
        echo "Usage: claw {start|stop}"
        exit 1
        ;;
esac
exit $?

